
T1280 000:350 SEGGER J-Link V4.96d Log File (0001ms, 0275ms total)
T1280 000:350 DLL Compiled: Jan 29 2015 11:45:37 (0001ms, 0275ms total)
T1280 000:350 Logging started @ 2017-12-23 09:45 (0001ms, 0275ms total)
T1280 000:351 JLINK_SetWarnOutHandler(...) (0000ms, 0275ms total)
T1280 000:351 JLINK_OpenEx(...)
Firmware: J-Link ARM-OB STM32 compiled Aug 22 2012 19:52:04
Hardware: V7.00
S/N: 20150613
Feature(s): RDI,FlashDL,FlashBP,JFlash,GDBFull  returns O.K. (0275ms, 0550ms total)
T1280 000:626 JLINK_SetErrorOutHandler(...) (0000ms, 0550ms total)
T1280 000:626 JLINK_ExecCommand("ProjectFile = "G:\tyu\blink_base20\USER\JLinkSettings.ini"", ...)  returns 0x00 (0001ms, 0551ms total)
T1280 000:643 JLINK_ExecCommand("Device = STM32F103C8", ...)Device "STM32F103C8" selected.  returns 0x00 (0011ms, 0562ms total)
T1280 000:654 JLINK_ExecCommand("DisableConnectionTimeout", ...)  returns 0x01 (0000ms, 0562ms total)
T1280 000:654 JLINK_GetHardwareVersion()  returns 0x11170 (0000ms, 0562ms total)
T1280 000:654 JLINK_GetDLLVersion()  returns 49604 (0000ms, 0562ms total)
T1280 000:654 JLINK_GetFirmwareString(...) (0000ms, 0562ms total)
T1280 000:680 JLINK_GetDLLVersion()  returns 49604 (0000ms, 0562ms total)
T1280 000:680 JLINK_GetCompileDateTime() (0000ms, 0562ms total)
T1280 000:693 JLINK_GetFirmwareString(...) (0000ms, 0562ms total)
T1280 000:709 JLINK_GetHardwareVersion()  returns 0x11170 (0000ms, 0562ms total)
T1280 000:734 JLINK_TIF_Select(JLINKARM_TIF_SWD)  returns 0x00 (0001ms, 0563ms total)
T1280 000:736 JLINK_SetSpeed(20000) (0000ms, 0563ms total)
T1280 000:736 JLINK_GetId() >0x108 TIF>Found SWD-DP with ID 0x1BA01477 >0x0D TIF> >0x28 TIF> >0x0D TIF> >0x28 TIF> >0x0D TIF> >0x21 TIF> >0x0D TIF> >0x28 TIF> >0x0D TIF> >0x28 TIF> >0x0D TIF> >0x28 TIF> >0x0D TIF> >0x21 TIF> >0x0D TIF> >0x21 TIF> >0x0D TIF> >0x28 TIF> >0x0D TIF> >0x21 TIF> >0x0D TIF> >0x21 TIF> >0x108 TIF>Found SWD-DP with ID 0x1BA01477 >0x0D TIF> >0x21 TIF> >0x0D TIF> >0x28 TIF> >0x0D TIF> >0x28 TIF> >0x0D TIF> >0x21 TIF> >0x0D TIF> >0x28 TIF> >0x0D TIF> >0x21 TIF> >0x0D TIF> >0x21 TIF>
 >0x0D TIF> >0x21 TIF> >0x0D TIF> >0x21 TIF> >0x0D TIF> >0x28 TIF> >0x0D TIF> >0x28 TIF> >0x0D TIF> >0x21 TIF> >0x0D TIF> >0x28 TIF> >0x0D TIF> >0x28 TIF> >0x0D TIF> >0x28 TIF> >0x0D TIF> >0x21 TIF> >0x0D TIF> >0x21 TIF> >0x0D TIF> >0x28 TIF> >0x0D TIF> >0x21 TIF> >0x0D TIF> >0x21 TIF>Found Cortex-M3 r1p1, Little endian. -- CPU_WriteMem(4 bytes @ 0xE0002000) -- CPU_ReadMem(4 bytes @ 0xE000EDF0) -- CPU_ReadMem(4 bytes @ 0xE0002000)FPUnit: 6 code (BP) slots and 2 literal slots
 -- CPU_ReadMem(4 bytes @ 0xE000EDFC) -- CPU_ReadMem(4 bytes @ 0xE0001000) -- CPU_WriteMem(4 bytes @ 0xE0001000) -- CPU_ReadMem(4 bytes @ 0xE000ED88) -- CPU_WriteMem(4 bytes @ 0xE000ED88) -- CPU_ReadMem(4 bytes @ 0xE000ED88) -- CPU_WriteMem(4 bytes @ 0xE000ED88) -- CPU_ReadMem(4 bytes @ 0xE00FF010)TPIU fitted. -- CPU_ReadMem(4 bytes @ 0xE00FF014) -- CPU_ReadMem(4 bytes @ 0xE00FF018) >0x0D TIF> >0x21 TIF>  returns 0x1BA01477 (0063ms, 0626ms total)
T1280 000:799 JLINK_GetDLLVersion()  returns 49604 (0000ms, 0626ms total)
T1280 000:799 JLINK_CORE_GetFound()  returns 0x30000FF (0000ms, 0626ms total)
T1280 000:799 JLINK_GetDebugInfo(0x100) -- Value=0xE00FF003  returns 0x00 (0000ms, 0626ms total)
T1280 000:803 JLINK_ReadMem (0xE00FF000, 0x0020 Bytes, ...) -- CPU is running -- CPU_ReadMem(32 bytes @ 0xE00FF000) - Data: 03 F0 F0 FF 03 20 F0 FF 03 30 F0 FF 03 10 F0 FF ...  returns 0x00 (0001ms, 0627ms total)
T1280 000:804 JLINK_ReadMem (0xE000EFF0, 0x0010 Bytes, ...) -- CPU is running -- CPU_ReadMem(16 bytes @ 0xE000EFF0) - Data: 0D 00 00 00 E0 00 00 00 05 00 00 00 B1 00 00 00  returns 0x00 (0001ms, 0628ms total)
T1280 000:805 JLINK_ReadMem (0xE000EFD0, 0x0020 Bytes, ...) -- CPU is running -- CPU_ReadMem(32 bytes @ 0xE000EFD0) - Data: 04 00 00 00 00 00 00 00 00 00 00 00 00 00 00 00 ...  returns 0x00 (0001ms, 0629ms total)
T1280 000:806 JLINK_ReadMem (0xE0001FF0, 0x0010 Bytes, ...) -- CPU is running -- CPU_ReadMem(16 bytes @ 0xE0001FF0) - Data: 0D 00 00 00 E0 00 00 00 05 00 00 00 B1 00 00 00  returns 0x00 (0001ms, 0630ms total)
T1280 000:807 JLINK_ReadMem (0xE0001FD0, 0x0020 Bytes, ...) -- CPU is running -- CPU_ReadMem(32 bytes @ 0xE0001FD0) - Data: 04 00 00 00 00 00 00 00 00 00 00 00 00 00 00 00 ...  returns 0x00 (0001ms, 0631ms total)
T1280 000:808 JLINK_ReadMem (0xE0002FF0, 0x0010 Bytes, ...) -- CPU is running -- CPU_ReadMem(16 bytes @ 0xE0002FF0) - Data: 0D 00 00 00 E0 00 00 00 05 00 00 00 B1 00 00 00  returns 0x00 (0001ms, 0632ms total)
T1280 000:809 JLINK_ReadMem (0xE0002FD0, 0x0020 Bytes, ...) -- CPU is running -- CPU_ReadMem(32 bytes @ 0xE0002FD0) - Data: 04 00 00 00 00 00 00 00 00 00 00 00 00 00 00 00 ...  returns 0x00 (0001ms, 0633ms total)
T1280 000:810 JLINK_ReadMem (0xE0000FF0, 0x0010 Bytes, ...) -- CPU is running -- CPU_ReadMem(16 bytes @ 0xE0000FF0) - Data: 0D 00 00 00 E0 00 00 00 05 00 00 00 B1 00 00 00  returns 0x00 (0001ms, 0634ms total)
T1280 000:811 JLINK_ReadMem (0xE0000FD0, 0x0020 Bytes, ...) -- CPU is running -- CPU_ReadMem(32 bytes @ 0xE0000FD0) - Data: 04 00 00 00 00 00 00 00 00 00 00 00 00 00 00 00 ...  returns 0x00 (0001ms, 0635ms total)
T1280 000:812 JLINK_ReadMem (0xE0040FF0, 0x0010 Bytes, ...) -- CPU is running -- CPU_ReadMem(16 bytes @ 0xE0040FF0) - Data: 0D 00 00 00 90 00 00 00 05 00 00 00 B1 00 00 00  returns 0x00 (0001ms, 0636ms total)
T1280 000:813 JLINK_ReadMem (0xE0040FD0, 0x0020 Bytes, ...) -- CPU is running -- CPU_ReadMem(32 bytes @ 0xE0040FD0) - Data: 04 00 00 00 00 00 00 00 00 00 00 00 00 00 00 00 ...  returns 0x00 (0001ms, 0637ms total)
T1280 000:814 JLINK_ReadMemU32(0xE000ED00, 0x0001 Items, ...) -- CPU is running -- CPU_ReadMem(4 bytes @ 0xE000ED00) - Data: 31 C2 1F 41  returns 0x01 (0001ms, 0638ms total)
T1280 000:815 JLINK_SetResetType(JLINKARM_RESET_TYPE_NORMAL)  returns JLINKARM_RESET_TYPE_NORMAL (0000ms, 0638ms total)
T1280 000:815 JLINK_Reset() -- CPU is running -- CPU_WriteMem(4 bytes @ 0xE000EDF0) -- CPU is running -- CPU_WriteMem(4 bytes @ 0xE000EDFC) >0x35 TIF> -- CPU is running -- CPU_WriteMem(4 bytes @ 0xE000ED0C) -- CPU is running -- CPU_ReadMem(4 bytes @ 0xE000EDF0) -- CPU is running -- CPU_ReadMem(4 bytes @ 0xE000EDF0) -- CPU is running -- CPU_WriteMem(4 bytes @ 0xE000EDF0) -- CPU is running -- CPU_WriteMem(4 bytes @ 0xE000EDFC) -- CPU is running -- CPU_ReadMem(4 bytes @ 0xE000EDF0)
 -- CPU_WriteMem(4 bytes @ 0xE0002000) -- CPU_ReadMem(4 bytes @ 0xE000EDFC) -- CPU_ReadMem(4 bytes @ 0xE0001000) (0022ms, 0660ms total)
T1280 000:837 JLINK_Halt()  returns 0x00 (0001ms, 0661ms total)
T1280 000:838 JLINK_IsHalted()  returns TRUE (0000ms, 0661ms total)
T1280 000:838 JLINK_ReadMemU32(0xE000EDF0, 0x0001 Items, ...) -- CPU_ReadMem(4 bytes @ 0xE000EDF0) - Data: 03 00 03 00  returns 0x01 (0000ms, 0661ms total)
T1280 000:838 JLINK_WriteU32(0xE000EDF0, 0xA05F0003) -- CPU_WriteMem(4 bytes @ 0xE000EDF0)  returns 0x00 (0001ms, 0662ms total)
T1280 000:839 JLINK_WriteU32(0xE000EDFC, 0x01000000) -- CPU_WriteMem(4 bytes @ 0xE000EDFC)  returns 0x00 (0001ms, 0663ms total)
T1280 000:853 JLINK_GetHWStatus(...)  returns 0x00 (0001ms, 0664ms total)
T1280 000:865 JLINK_GetNumBPUnits(Type = 0xFFFFFF00)  returns 0x06 (0000ms, 0664ms total)
T1280 000:865 JLINK_GetNumBPUnits(Type = 0xF0)  returns 0x2000 (0000ms, 0664ms total)
T1280 000:865 JLINK_GetNumWPUnits()  returns 0x04 (0000ms, 0664ms total)
T1280 000:876 JLINK_GetSpeed()  returns 0xFA0 (0000ms, 0664ms total)
T1280 000:884 JLINK_ReadMemU32(0xE000E004, 0x0001 Items, ...) -- CPU_ReadMem(4 bytes @ 0xE000E004) - Data: 01 00 00 00  returns 0x01 (0001ms, 0665ms total)
T1280 000:885 JLINK_ReadMemU32(0xE000E004, 0x0001 Items, ...) -- CPU_ReadMem(4 bytes @ 0xE000E004) - Data: 01 00 00 00  returns 0x01 (0001ms, 0666ms total)
T1280 000:886 JLINK_WriteMem(0xE0001000, 0x001C Bytes, ...) - Data: 01 00 00 00 00 00 00 00 00 00 00 00 00 00 00 00 ... -- CPU_WriteMem(28 bytes @ 0xE0001000)  returns 0x1C (0002ms, 0668ms total)
T1280 000:888 JLINK_ReadMem (0xE0001000, 0x001C Bytes, ...) -- CPU_ReadMem(28 bytes @ 0xE0001000) - Data: 01 00 00 40 00 00 00 00 00 00 00 00 00 00 00 00 ...  returns 0x00 (0000ms, 0668ms total)
T1280 000:888 JLINK_Halt()  returns 0x00 (0001ms, 0669ms total)
T1280 000:889 JLINK_IsHalted()  returns TRUE (0000ms, 0669ms total)
T1280 000:905 JLINK_WriteMem(0x20000000, 0x0164 Bytes, ...) - Data: 00 BE 0A E0 0D 78 2D 06 68 40 08 24 40 00 00 D3 ... -- CPU_WriteMem(356 bytes @ 0x20000000)  returns 0x164 (0006ms, 0675ms total)
T1280 000:911 JLINK_WriteReg(R0, 0x08000000)  returns 0x00 (0000ms, 0675ms total)
T1280 000:911 JLINK_WriteReg(R1, 0x00B71B00)  returns 0x00 (0000ms, 0675ms total)
T1280 000:911 JLINK_WriteReg(R2, 0x00000001)  returns 0x00 (0000ms, 0675ms total)
T1280 000:911 JLINK_WriteReg(R3, 0x00000000)  returns 0x00 (0000ms, 0675ms total)
T1280 000:911 JLINK_WriteReg(R4, 0x00000000)  returns 0x00 (0000ms, 0675ms total)
T1280 000:911 JLINK_WriteReg(R5, 0x00000000)  returns 0x00 (0000ms, 0675ms total)
T1280 000:911 JLINK_WriteReg(R6, 0x00000000)  returns 0x00 (0000ms, 0675ms total)
T1280 000:911 JLINK_WriteReg(R7, 0x00000000)  returns 0x00 (0000ms, 0675ms total)
T1280 000:911 JLINK_WriteReg(R8, 0x00000000)  returns 0x00 (0000ms, 0675ms total)
T1280 000:911 JLINK_WriteReg(R9, 0x20000160)  returns 0x00 (0000ms, 0675ms total)
T1280 000:911 JLINK_WriteReg(R10, 0x00000000)  returns 0x00 (0000ms, 0675ms total)
T1280 000:911 JLINK_WriteReg(R11, 0x00000000)  returns 0x00 (0000ms, 0675ms total)
T1280 000:911 JLINK_WriteReg(R12, 0x00000000)  returns 0x00 (0000ms, 0675ms total)
T1280 000:911 JLINK_WriteReg(R13 (SP), 0x20000800)  returns 0x00 (0000ms, 0675ms total)
T1280 000:911 JLINK_WriteReg(R14, 0x20000001)  returns 0x00 (0000ms, 0675ms total)
T1280 000:911 JLINK_WriteReg(R15 (PC), 0x20000038)  returns 0x00 (0000ms, 0675ms total)
T1280 000:911 JLINK_WriteReg(XPSR, 0x01000000)  returns 0x00 (0000ms, 0675ms total)
T1280 000:911 JLINK_WriteReg(MSP, 0x20000800)  returns 0x00 (0000ms, 0675ms total)
T1280 000:911 JLINK_WriteReg(PSP, 0x20000800)  returns 0x00 (0000ms, 0675ms total)
T1280 000:911 JLINK_WriteReg(CFBP, 0x00000000)  returns 0x00 (0000ms, 0675ms total)
T1280 000:911 JLINK_SetBPEx(Addr = 0x20000000, Type = 0xFFFFFFF2) -- CPU_ReadMem(2 bytes @ 0x20000000)  returns 0x00000001 (0001ms, 0676ms total)
T1280 000:912 JLINK_Go() -- CPU_WriteMem(2 bytes @ 0x20000000) -- CPU_WriteMem(4 bytes @ 0xE0002008) -- CPU_WriteMem(4 bytes @ 0xE000200C) -- CPU_WriteMem(4 bytes @ 0xE0002010) -- CPU_WriteMem(4 bytes @ 0xE0002014) -- CPU_WriteMem(4 bytes @ 0xE0002018) -- CPU_WriteMem(4 bytes @ 0xE000201C) -- CPU_WriteMem(4 bytes @ 0xE0001004) (0006ms, 0682ms total)
T1280 000:918 JLINK_IsHalted() -- CPU_ReadMem(2 bytes @ 0x20000000)  returns TRUE (0005ms, 0687ms total)
T1280 000:923 JLINK_ReadReg(R15 (PC))  returns 0x20000000 (0000ms, 0682ms total)
T1280 000:923 JLINK_ClrBPEx(BPHandle = 0x00000001)  returns 0x00 (0000ms, 0682ms total)
T1280 000:923 JLINK_ReadReg(R0)  returns 0x00000000 (0000ms, 0682ms total)
T1280 000:924 JLINK_WriteReg(R0, 0x08000000)  returns 0x00 (0000ms, 0682ms total)
T1280 000:924 JLINK_WriteReg(R1, 0x00B71B00)  returns 0x00 (0000ms, 0682ms total)
T1280 000:924 JLINK_WriteReg(R2, 0x00000001)  returns 0x00 (0000ms, 0682ms total)
T1280 000:924 JLINK_WriteReg(R3, 0x00000000)  returns 0x00 (0000ms, 0682ms total)
T1280 000:924 JLINK_WriteReg(R4, 0x00000000)  returns 0x00 (0000ms, 0682ms total)
T1280 000:924 JLINK_WriteReg(R5, 0x00000000)  returns 0x00 (0000ms, 0682ms total)
T1280 000:924 JLINK_WriteReg(R6, 0x00000000)  returns 0x00 (0000ms, 0682ms total)
T1280 000:924 JLINK_WriteReg(R7, 0x00000000)  returns 0x00 (0000ms, 0682ms total)
T1280 000:924 JLINK_WriteReg(R8, 0x00000000)  returns 0x00 (0000ms, 0682ms total)
T1280 000:924 JLINK_WriteReg(R9, 0x20000160)  returns 0x00 (0000ms, 0682ms total)
T1280 000:924 JLINK_WriteReg(R10, 0x00000000)  returns 0x00 (0000ms, 0682ms total)
T1280 000:924 JLINK_WriteReg(R11, 0x00000000)  returns 0x00 (0000ms, 0682ms total)
T1280 000:924 JLINK_WriteReg(R12, 0x00000000)  returns 0x00 (0000ms, 0682ms total)
T1280 000:924 JLINK_WriteReg(R13 (SP), 0x20000800)  returns 0x00 (0000ms, 0682ms total)
T1280 000:924 JLINK_WriteReg(R14, 0x20000001)  returns 0x00 (0000ms, 0682ms total)
T1280 000:924 JLINK_WriteReg(R15 (PC), 0x2000007C)  returns 0x00 (0000ms, 0682ms total)
T1280 000:924 JLINK_WriteReg(XPSR, 0x01000000)  returns 0x00 (0000ms, 0682ms total)
T1280 000:924 JLINK_WriteReg(MSP, 0x20000800)  returns 0x00 (0000ms, 0682ms total)
T1280 000:924 JLINK_WriteReg(PSP, 0x20000800)  returns 0x00 (0000ms, 0682ms total)
T1280 000:924 JLINK_WriteReg(CFBP, 0x00000000)  returns 0x00 (0000ms, 0682ms total)
T1280 000:924 JLINK_SetBPEx(Addr = 0x20000000, Type = 0xFFFFFFF2)  returns 0x00000002 (0000ms, 0682ms total)
T1280 000:924 JLINK_Go() (0002ms, 0684ms total)
T1280 000:926 JLINK_IsHalted()  returns FALSE (0001ms, 0685ms total)
T1280 001:020 JLINK_IsHalted() -- CPU_ReadMem(2 bytes @ 0x20000000)  returns TRUE (0004ms, 0688ms total)
T1280 001:024 JLINK_ReadReg(R15 (PC))  returns 0x20000000 (0000ms, 0684ms total)
T1280 001:024 JLINK_ClrBPEx(BPHandle = 0x00000002)  returns 0x00 (0000ms, 0684ms total)
T1280 001:024 JLINK_ReadReg(R0)  returns 0x00000000 (0000ms, 0684ms total)
T1280 001:076 JLINK_WriteReg(R0, 0x00000001)  returns 0x00 (0000ms, 0684ms total)
T1280 001:076 JLINK_WriteReg(R1, 0x00B71B00)  returns 0x00 (0000ms, 0684ms total)
T1280 001:076 JLINK_WriteReg(R2, 0x00000001)  returns 0x00 (0000ms, 0684ms total)
T1280 001:076 JLINK_WriteReg(R3, 0x00000000)  returns 0x00 (0000ms, 0684ms total)
T1280 001:076 JLINK_WriteReg(R4, 0x00000000)  returns 0x00 (0000ms, 0684ms total)
T1280 001:076 JLINK_WriteReg(R5, 0x00000000)  returns 0x00 (0000ms, 0684ms total)
T1280 001:076 JLINK_WriteReg(R6, 0x00000000)  returns 0x00 (0000ms, 0684ms total)
T1280 001:076 JLINK_WriteReg(R7, 0x00000000)  returns 0x00 (0000ms, 0684ms total)
T1280 001:076 JLINK_WriteReg(R8, 0x00000000)  returns 0x00 (0000ms, 0684ms total)
T1280 001:076 JLINK_WriteReg(R9, 0x20000160)  returns 0x00 (0000ms, 0684ms total)
T1280 001:076 JLINK_WriteReg(R10, 0x00000000)  returns 0x00 (0000ms, 0684ms total)
T1280 001:077 JLINK_WriteReg(R11, 0x00000000)  returns 0x00 (0000ms, 0685ms total)
T1280 001:077 JLINK_WriteReg(R12, 0x00000000)  returns 0x00 (0000ms, 0685ms total)
T1280 001:077 JLINK_WriteReg(R13 (SP), 0x20000800)  returns 0x00 (0000ms, 0685ms total)
T1280 001:077 JLINK_WriteReg(R14, 0x20000001)  returns 0x00 (0000ms, 0685ms total)
T1280 001:077 JLINK_WriteReg(R15 (PC), 0x2000006A)  returns 0x00 (0000ms, 0685ms total)
T1280 001:077 JLINK_WriteReg(XPSR, 0x01000000)  returns 0x00 (0000ms, 0685ms total)
T1280 001:077 JLINK_WriteReg(MSP, 0x20000800)  returns 0x00 (0000ms, 0685ms total)
T1280 001:077 JLINK_WriteReg(PSP, 0x20000800)  returns 0x00 (0000ms, 0685ms total)
T1280 001:077 JLINK_WriteReg(CFBP, 0x00000000)  returns 0x00 (0000ms, 0685ms total)
T1280 001:077 JLINK_SetBPEx(Addr = 0x20000000, Type = 0xFFFFFFF2)  returns 0x00000003 (0000ms, 0685ms total)
T1280 001:077 JLINK_Go() (0002ms, 0687ms total)
T1280 001:079 JLINK_IsHalted() -- CPU_ReadMem(2 bytes @ 0x20000000)  returns TRUE (0004ms, 0691ms total)
T1280 001:083 JLINK_ReadReg(R15 (PC))  returns 0x20000000 (0000ms, 0687ms total)
T1280 001:083 JLINK_ClrBPEx(BPHandle = 0x00000003)  returns 0x00 (0000ms, 0687ms total)
T1280 001:083 JLINK_ReadReg(R0)  returns 0x00000000 (0000ms, 0687ms total)
T1280 001:090 JLINK_WriteMem(0x20000000, 0x0164 Bytes, ...) - Data: 00 BE 0A E0 0D 78 2D 06 68 40 08 24 40 00 00 D3 ... -- CPU_WriteMem(356 bytes @ 0x20000000)  returns 0x164 (0005ms, 0692ms total)
T1280 001:096 JLINK_WriteReg(R0, 0x08000000)  returns 0x00 (0000ms, 0693ms total)
T1280 001:096 JLINK_WriteReg(R1, 0x00B71B00)  returns 0x00 (0000ms, 0693ms total)
T1280 001:096 JLINK_WriteReg(R2, 0x00000002)  returns 0x00 (0000ms, 0693ms total)
T1280 001:096 JLINK_WriteReg(R3, 0x00000000)  returns 0x00 (0000ms, 0693ms total)
T1280 001:096 JLINK_WriteReg(R4, 0x00000000)  returns 0x00 (0000ms, 0693ms total)
T1280 001:096 JLINK_WriteReg(R5, 0x00000000)  returns 0x00 (0000ms, 0693ms total)
T1280 001:096 JLINK_WriteReg(R6, 0x00000000)  returns 0x00 (0000ms, 0693ms total)
T1280 001:096 JLINK_WriteReg(R7, 0x00000000)  returns 0x00 (0000ms, 0693ms total)
T1280 001:096 JLINK_WriteReg(R8, 0x00000000)  returns 0x00 (0000ms, 0693ms total)
T1280 001:096 JLINK_WriteReg(R9, 0x20000160)  returns 0x00 (0000ms, 0693ms total)
T1280 001:096 JLINK_WriteReg(R10, 0x00000000)  returns 0x00 (0000ms, 0693ms total)
T1280 001:096 JLINK_WriteReg(R11, 0x00000000)  returns 0x00 (0000ms, 0693ms total)
T1280 001:096 JLINK_WriteReg(R12, 0x00000000)  returns 0x00 (0000ms, 0693ms total)
T1280 001:096 JLINK_WriteReg(R13 (SP), 0x20000800)  returns 0x00 (0000ms, 0693ms total)
T1280 001:096 JLINK_WriteReg(R14, 0x20000001)  returns 0x00 (0000ms, 0693ms total)
T1280 001:096 JLINK_WriteReg(R15 (PC), 0x20000038)  returns 0x00 (0000ms, 0693ms total)
T1280 001:096 JLINK_WriteReg(XPSR, 0x01000000)  returns 0x00 (0000ms, 0693ms total)
T1280 001:096 JLINK_WriteReg(MSP, 0x20000800)  returns 0x00 (0000ms, 0693ms total)
T1280 001:096 JLINK_WriteReg(PSP, 0x20000800)  returns 0x00 (0000ms, 0693ms total)
T1280 001:096 JLINK_WriteReg(CFBP, 0x00000000)  returns 0x00 (0000ms, 0693ms total)
T1280 001:096 JLINK_SetBPEx(Addr = 0x20000000, Type = 0xFFFFFFF2) -- CPU_ReadMem(2 bytes @ 0x20000000)  returns 0x00000004 (0001ms, 0694ms total)
T1280 001:097 JLINK_Go() -- CPU_WriteMem(2 bytes @ 0x20000000) (0003ms, 0697ms total)
T1280 001:100 JLINK_IsHalted() -- CPU_ReadMem(2 bytes @ 0x20000000)  returns TRUE (0004ms, 0701ms total)
T1280 001:104 JLINK_ReadReg(R15 (PC))  returns 0x20000000 (0000ms, 0697ms total)
T1280 001:104 JLINK_ClrBPEx(BPHandle = 0x00000004)  returns 0x00 (0000ms, 0697ms total)
T1280 001:104 JLINK_ReadReg(R0)  returns 0x00000000 (0000ms, 0697ms total)
T1280 001:106 JLINK_WriteMem(0x20000164, 0x0400 Bytes, ...) - Data: 00 04 00 20 47 01 00 08 45 02 00 08 47 02 00 08 ... -- CPU_WriteMem(1024 bytes @ 0x20000164)  returns 0x400 (0012ms, 0709ms total)
T1280 001:118 JLINK_WriteReg(R0, 0x08000000)  returns 0x00 (0000ms, 0709ms total)
T1280 001:118 JLINK_WriteReg(R1, 0x00000400)  returns 0x00 (0000ms, 0709ms total)
T1280 001:118 JLINK_WriteReg(R2, 0x20000164)  returns 0x00 (0000ms, 0709ms total)
T1280 001:118 JLINK_WriteReg(R3, 0x00000000)  returns 0x00 (0000ms, 0709ms total)
T1280 001:118 JLINK_WriteReg(R4, 0x00000000)  returns 0x00 (0000ms, 0709ms total)
T1280 001:118 JLINK_WriteReg(R5, 0x00000000)  returns 0x00 (0000ms, 0709ms total)
T1280 001:118 JLINK_WriteReg(R6, 0x00000000)  returns 0x00 (0000ms, 0709ms total)
T1280 001:118 JLINK_WriteReg(R7, 0x00000000)  returns 0x00 (0000ms, 0709ms total)
T1280 001:118 JLINK_WriteReg(R8, 0x00000000)  returns 0x00 (0000ms, 0709ms total)
T1280 001:118 JLINK_WriteReg(R9, 0x20000160)  returns 0x00 (0000ms, 0709ms total)
T1280 001:118 JLINK_WriteReg(R10, 0x00000000)  returns 0x00 (0000ms, 0709ms total)
T1280 001:118 JLINK_WriteReg(R11, 0x00000000)  returns 0x00 (0000ms, 0709ms total)
T1280 001:118 JLINK_WriteReg(R12, 0x00000000)  returns 0x00 (0000ms, 0709ms total)
T1280 001:118 JLINK_WriteReg(R13 (SP), 0x20000800)  returns 0x00 (0000ms, 0709ms total)
T1280 001:118 JLINK_WriteReg(R14, 0x20000001)  returns 0x00 (0000ms, 0709ms total)
T1280 001:118 JLINK_WriteReg(R15 (PC), 0x200000F4)  returns 0x00 (0001ms, 0710ms total)
T1280 001:119 JLINK_WriteReg(XPSR, 0x01000000)  returns 0x00 (0000ms, 0710ms total)
T1280 001:119 JLINK_WriteReg(MSP, 0x20000800)  returns 0x00 (0000ms, 0710ms total)
T1280 001:119 JLINK_WriteReg(PSP, 0x20000800)  returns 0x00 (0000ms, 0710ms total)
T1280 001:119 JLINK_WriteReg(CFBP, 0x00000000)  returns 0x00 (0000ms, 0710ms total)
T1280 001:119 JLINK_SetBPEx(Addr = 0x20000000, Type = 0xFFFFFFF2)  returns 0x00000005 (0000ms, 0710ms total)
T1280 001:119 JLINK_Go() (0002ms, 0712ms total)
T1280 001:121 JLINK_IsHalted()  returns FALSE (0001ms, 0713ms total)
T1280 001:153 JLINK_IsHalted() -- CPU_ReadMem(2 bytes @ 0x20000000)  returns TRUE (0004ms, 0716ms total)
T1280 001:157 JLINK_ReadReg(R15 (PC))  returns 0x20000000 (0000ms, 0712ms total)
T1280 001:157 JLINK_ClrBPEx(BPHandle = 0x00000005)  returns 0x00 (0000ms, 0712ms total)
T1280 001:157 JLINK_ReadReg(R0)  returns 0x00000000 (0000ms, 0712ms total)
T1280 001:158 JLINK_WriteMem(0x20000164, 0x0400 Bytes, ...) - Data: 01 F0 02 FA 01 21 08 46 01 F0 FE F9 04 20 AD F8 ... -- CPU_WriteMem(1024 bytes @ 0x20000164)  returns 0x400 (0012ms, 0724ms total)
T1280 001:170 JLINK_WriteReg(R0, 0x08000400)  returns 0x00 (0000ms, 0724ms total)
T1280 001:170 JLINK_WriteReg(R1, 0x00000400)  returns 0x00 (0000ms, 0724ms total)
T1280 001:170 JLINK_WriteReg(R2, 0x20000164)  returns 0x00 (0000ms, 0724ms total)
T1280 001:170 JLINK_WriteReg(R3, 0x00000000)  returns 0x00 (0000ms, 0724ms total)
T1280 001:170 JLINK_WriteReg(R4, 0x00000000)  returns 0x00 (0000ms, 0724ms total)
T1280 001:170 JLINK_WriteReg(R5, 0x00000000)  returns 0x00 (0000ms, 0724ms total)
T1280 001:170 JLINK_WriteReg(R6, 0x00000000)  returns 0x00 (0000ms, 0724ms total)
T1280 001:170 JLINK_WriteReg(R7, 0x00000000)  returns 0x00 (0000ms, 0724ms total)
T1280 001:170 JLINK_WriteReg(R8, 0x00000000)  returns 0x00 (0000ms, 0724ms total)
T1280 001:170 JLINK_WriteReg(R9, 0x20000160)  returns 0x00 (0000ms, 0724ms total)
T1280 001:170 JLINK_WriteReg(R10, 0x00000000)  returns 0x00 (0000ms, 0724ms total)
T1280 001:170 JLINK_WriteReg(R11, 0x00000000)  returns 0x00 (0000ms, 0724ms total)
T1280 001:171 JLINK_WriteReg(R12, 0x00000000)  returns 0x00 (0000ms, 0724ms total)
T1280 001:171 JLINK_WriteReg(R13 (SP), 0x20000800)  returns 0x00 (0000ms, 0724ms total)
T1280 001:171 JLINK_WriteReg(R14, 0x20000001)  returns 0x00 (0000ms, 0724ms total)
T1280 001:171 JLINK_WriteReg(R15 (PC), 0x200000F4)  returns 0x00 (0000ms, 0724ms total)
T1280 001:171 JLINK_WriteReg(XPSR, 0x01000000)  returns 0x00 (0000ms, 0724ms total)
T1280 001:171 JLINK_WriteReg(MSP, 0x20000800)  returns 0x00 (0000ms, 0724ms total)
T1280 001:171 JLINK_WriteReg(PSP, 0x20000800)  returns 0x00 (0000ms, 0724ms total)
T1280 001:171 JLINK_WriteReg(CFBP, 0x00000000)  returns 0x00 (0000ms, 0724ms total)
T1280 001:171 JLINK_SetBPEx(Addr = 0x20000000, Type = 0xFFFFFFF2)  returns 0x00000006 (0000ms, 0724ms total)
T1280 001:171 JLINK_Go() (0002ms, 0726ms total)
T1280 001:173 JLINK_IsHalted()  returns FALSE (0001ms, 0727ms total)
T1280 001:190 JLINK_IsHalted()  returns FALSE (0001ms, 0727ms total)
T1280 001:193 JLINK_IsHalted()  returns FALSE (0001ms, 0727ms total)
T1280 001:196 JLINK_IsHalted()  returns FALSE (0001ms, 0727ms total)
T1280 001:198 JLINK_IsHalted()  returns FALSE (0001ms, 0727ms total)
T1280 001:200 JLINK_IsHalted()  returns FALSE (0001ms, 0727ms total)
T1280 001:202 JLINK_IsHalted()  returns FALSE (0001ms, 0727ms total)
T1280 001:205 JLINK_IsHalted() -- CPU_ReadMem(2 bytes @ 0x20000000)  returns TRUE (0004ms, 0730ms total)
T1280 001:210 JLINK_ReadReg(R15 (PC))  returns 0x20000000 (0000ms, 0726ms total)
T1280 001:210 JLINK_ClrBPEx(BPHandle = 0x00000006)  returns 0x00 (0000ms, 0726ms total)
T1280 001:210 JLINK_ReadReg(R0)  returns 0x00000000 (0000ms, 0726ms total)
T1280 001:210 JLINK_WriteMem(0x20000164, 0x0400 Bytes, ...) - Data: 4F F4 60 20 02 90 03 20 8D F8 10 00 01 20 8D F8 ... -- CPU_WriteMem(1024 bytes @ 0x20000164)  returns 0x400 (0013ms, 0739ms total)
T1280 001:223 JLINK_WriteReg(R0, 0x08000800)  returns 0x00 (0000ms, 0739ms total)
T1280 001:223 JLINK_WriteReg(R1, 0x00000400)  returns 0x00 (0000ms, 0739ms total)
T1280 001:223 JLINK_WriteReg(R2, 0x20000164)  returns 0x00 (0000ms, 0739ms total)
T1280 001:223 JLINK_WriteReg(R3, 0x00000000)  returns 0x00 (0000ms, 0739ms total)
T1280 001:223 JLINK_WriteReg(R4, 0x00000000)  returns 0x00 (0000ms, 0739ms total)
T1280 001:223 JLINK_WriteReg(R5, 0x00000000)  returns 0x00 (0000ms, 0739ms total)
T1280 001:223 JLINK_WriteReg(R6, 0x00000000)  returns 0x00 (0000ms, 0739ms total)
T1280 001:223 JLINK_WriteReg(R7, 0x00000000)  returns 0x00 (0000ms, 0739ms total)
T1280 001:223 JLINK_WriteReg(R8, 0x00000000)  returns 0x00 (0000ms, 0739ms total)
T1280 001:223 JLINK_WriteReg(R9, 0x20000160)  returns 0x00 (0000ms, 0739ms total)
T1280 001:223 JLINK_WriteReg(R10, 0x00000000)  returns 0x00 (0000ms, 0739ms total)
T1280 001:223 JLINK_WriteReg(R11, 0x00000000)  returns 0x00 (0000ms, 0739ms total)
T1280 001:223 JLINK_WriteReg(R12, 0x00000000)  returns 0x00 (0000ms, 0739ms total)
T1280 001:223 JLINK_WriteReg(R13 (SP), 0x20000800)  returns 0x00 (0000ms, 0739ms total)
T1280 001:223 JLINK_WriteReg(R14, 0x20000001)  returns 0x00 (0000ms, 0739ms total)
T1280 001:223 JLINK_WriteReg(R15 (PC), 0x200000F4)  returns 0x00 (0000ms, 0739ms total)
T1280 001:223 JLINK_WriteReg(XPSR, 0x01000000)  returns 0x00 (0000ms, 0739ms total)
T1280 001:223 JLINK_WriteReg(MSP, 0x20000800)  returns 0x00 (0000ms, 0739ms total)
T1280 001:223 JLINK_WriteReg(PSP, 0x20000800)  returns 0x00 (0000ms, 0739ms total)
T1280 001:223 JLINK_WriteReg(CFBP, 0x00000000)  returns 0x00 (0000ms, 0739ms total)
T1280 001:223 JLINK_SetBPEx(Addr = 0x20000000, Type = 0xFFFFFFF2)  returns 0x00000007 (0000ms, 0739ms total)
T1280 001:223 JLINK_Go() (0002ms, 0741ms total)
T1280 001:225 JLINK_IsHalted()  returns FALSE (0001ms, 0742ms total)
T1280 001:235 JLINK_IsHalted()  returns FALSE (0001ms, 0742ms total)
T1280 001:237 JLINK_IsHalted()  returns FALSE (0001ms, 0742ms total)
T1280 001:239 JLINK_IsHalted()  returns FALSE (0001ms, 0742ms total)
T1280 001:241 JLINK_IsHalted()  returns FALSE (0001ms, 0742ms total)
T1280 001:243 JLINK_IsHalted()  returns FALSE (0001ms, 0742ms total)
T1280 001:253 JLINK_IsHalted()  returns FALSE (0000ms, 0741ms total)
T1280 001:255 JLINK_IsHalted()  returns FALSE (0001ms, 0742ms total)
T1280 001:257 JLINK_IsHalted() -- CPU_ReadMem(2 bytes @ 0x20000000)  returns TRUE (0004ms, 0745ms total)
T1280 001:261 JLINK_ReadReg(R15 (PC))  returns 0x20000000 (0000ms, 0741ms total)
T1280 001:261 JLINK_ClrBPEx(BPHandle = 0x00000007)  returns 0x00 (0000ms, 0741ms total)
T1280 001:261 JLINK_ReadReg(R0)  returns 0x00000000 (0000ms, 0741ms total)
T1280 001:262 JLINK_WriteMem(0x20000164, 0x0400 Bytes, ...) - Data: 2B 48 01 F0 5A FC 08 21 29 48 01 F0 89 FF 01 A9 ... -- CPU_WriteMem(1024 bytes @ 0x20000164)  returns 0x400 (0013ms, 0754ms total)
T1280 001:275 JLINK_WriteReg(R0, 0x08000C00)  returns 0x00 (0000ms, 0754ms total)
T1280 001:275 JLINK_WriteReg(R1, 0x00000400)  returns 0x00 (0000ms, 0754ms total)
T1280 001:275 JLINK_WriteReg(R2, 0x20000164)  returns 0x00 (0000ms, 0754ms total)
T1280 001:275 JLINK_WriteReg(R3, 0x00000000)  returns 0x00 (0000ms, 0754ms total)
T1280 001:275 JLINK_WriteReg(R4, 0x00000000)  returns 0x00 (0000ms, 0754ms total)
T1280 001:275 JLINK_WriteReg(R5, 0x00000000)  returns 0x00 (0000ms, 0754ms total)
T1280 001:275 JLINK_WriteReg(R6, 0x00000000)  returns 0x00 (0000ms, 0754ms total)
T1280 001:275 JLINK_WriteReg(R7, 0x00000000)  returns 0x00 (0000ms, 0754ms total)
T1280 001:275 JLINK_WriteReg(R8, 0x00000000)  returns 0x00 (0000ms, 0754ms total)
T1280 001:275 JLINK_WriteReg(R9, 0x20000160)  returns 0x00 (0000ms, 0754ms total)
T1280 001:275 JLINK_WriteReg(R10, 0x00000000)  returns 0x00 (0000ms, 0754ms total)
T1280 001:275 JLINK_WriteReg(R11, 0x00000000)  returns 0x00 (0000ms, 0754ms total)
T1280 001:275 JLINK_WriteReg(R12, 0x00000000)  returns 0x00 (0000ms, 0754ms total)
T1280 001:275 JLINK_WriteReg(R13 (SP), 0x20000800)  returns 0x00 (0000ms, 0754ms total)
T1280 001:275 JLINK_WriteReg(R14, 0x20000001)  returns 0x00 (0000ms, 0754ms total)
T1280 001:275 JLINK_WriteReg(R15 (PC), 0x200000F4)  returns 0x00 (0000ms, 0754ms total)
T1280 001:275 JLINK_WriteReg(XPSR, 0x01000000)  returns 0x00 (0000ms, 0754ms total)
T1280 001:275 JLINK_WriteReg(MSP, 0x20000800)  returns 0x00 (0000ms, 0754ms total)
T1280 001:275 JLINK_WriteReg(PSP, 0x20000800)  returns 0x00 (0000ms, 0754ms total)
T1280 001:275 JLINK_WriteReg(CFBP, 0x00000000)  returns 0x00 (0000ms, 0754ms total)
T1280 001:275 JLINK_SetBPEx(Addr = 0x20000000, Type = 0xFFFFFFF2)  returns 0x00000008 (0000ms, 0754ms total)
T1280 001:275 JLINK_Go() (0002ms, 0756ms total)
T1280 001:277 JLINK_IsHalted()  returns FALSE (0001ms, 0757ms total)
T1280 001:291 JLINK_IsHalted()  returns FALSE (0000ms, 0756ms total)
T1280 001:295 JLINK_IsHalted()  returns FALSE (0001ms, 0757ms total)
T1280 001:298 JLINK_IsHalted()  returns FALSE (0000ms, 0756ms total)
T1280 001:300 JLINK_IsHalted()  returns FALSE (0000ms, 0756ms total)
T1280 001:302 JLINK_IsHalted()  returns FALSE (0001ms, 0757ms total)
T1280 001:304 JLINK_IsHalted()  returns FALSE (0001ms, 0757ms total)
T1280 001:306 JLINK_IsHalted()  returns FALSE (0001ms, 0757ms total)
T1280 001:308 JLINK_IsHalted() -- CPU_ReadMem(2 bytes @ 0x20000000)  returns TRUE (0004ms, 0760ms total)
T1280 001:312 JLINK_ReadReg(R15 (PC))  returns 0x20000000 (0000ms, 0756ms total)
T1280 001:312 JLINK_ClrBPEx(BPHandle = 0x00000008)  returns 0x00 (0001ms, 0757ms total)
T1280 001:313 JLINK_ReadReg(R0)  returns 0x00000000 (0000ms, 0757ms total)
T1280 001:313 JLINK_WriteMem(0x20000164, 0x0400 Bytes, ...) - Data: 02 F0 1C F8 07 46 00 22 75 4B 02 F0 2B F8 0A D8 ... -- CPU_WriteMem(1024 bytes @ 0x20000164)  returns 0x400 (0013ms, 0770ms total)
T1280 001:326 JLINK_WriteReg(R0, 0x08001000)  returns 0x00 (0000ms, 0770ms total)
T1280 001:326 JLINK_WriteReg(R1, 0x00000400)  returns 0x00 (0000ms, 0770ms total)
T1280 001:326 JLINK_WriteReg(R2, 0x20000164)  returns 0x00 (0000ms, 0770ms total)
T1280 001:326 JLINK_WriteReg(R3, 0x00000000)  returns 0x00 (0000ms, 0770ms total)
T1280 001:326 JLINK_WriteReg(R4, 0x00000000)  returns 0x00 (0000ms, 0770ms total)
T1280 001:326 JLINK_WriteReg(R5, 0x00000000)  returns 0x00 (0000ms, 0770ms total)
T1280 001:326 JLINK_WriteReg(R6, 0x00000000)  returns 0x00 (0000ms, 0770ms total)
T1280 001:326 JLINK_WriteReg(R7, 0x00000000)  returns 0x00 (0000ms, 0770ms total)
T1280 001:326 JLINK_WriteReg(R8, 0x00000000)  returns 0x00 (0000ms, 0770ms total)
T1280 001:326 JLINK_WriteReg(R9, 0x20000160)  returns 0x00 (0000ms, 0770ms total)
T1280 001:326 JLINK_WriteReg(R10, 0x00000000)  returns 0x00 (0000ms, 0770ms total)
T1280 001:326 JLINK_WriteReg(R11, 0x00000000)  returns 0x00 (0000ms, 0770ms total)
T1280 001:326 JLINK_WriteReg(R12, 0x00000000)  returns 0x00 (0000ms, 0770ms total)
T1280 001:326 JLINK_WriteReg(R13 (SP), 0x20000800)  returns 0x00 (0000ms, 0770ms total)
T1280 001:326 JLINK_WriteReg(R14, 0x20000001)  returns 0x00 (0000ms, 0770ms total)
T1280 001:326 JLINK_WriteReg(R15 (PC), 0x200000F4)  returns 0x00 (0000ms, 0770ms total)
T1280 001:326 JLINK_WriteReg(XPSR, 0x01000000)  returns 0x00 (0000ms, 0770ms total)
T1280 001:326 JLINK_WriteReg(MSP, 0x20000800)  returns 0x00 (0000ms, 0770ms total)
T1280 001:326 JLINK_WriteReg(PSP, 0x20000800)  returns 0x00 (0000ms, 0770ms total)
T1280 001:326 JLINK_WriteReg(CFBP, 0x00000000)  returns 0x00 (0000ms, 0770ms total)
T1280 001:326 JLINK_SetBPEx(Addr = 0x20000000, Type = 0xFFFFFFF2)  returns 0x00000009 (0000ms, 0770ms total)
T1280 001:326 JLINK_Go() (0002ms, 0772ms total)
T1280 001:329 JLINK_IsHalted()  returns FALSE (0000ms, 0772ms total)
T1280 001:332 JLINK_IsHalted()  returns FALSE (0001ms, 0773ms total)
T1280 001:334 JLINK_IsHalted()  returns FALSE (0001ms, 0773ms total)
T1280 001:336 JLINK_IsHalted()  returns FALSE (0001ms, 0773ms total)
T1280 001:339 JLINK_IsHalted()  returns FALSE (0001ms, 0773ms total)
T1280 001:341 JLINK_IsHalted()  returns FALSE (0001ms, 0773ms total)
T1280 001:343 JLINK_IsHalted()  returns FALSE (0001ms, 0773ms total)
T1280 001:345 JLINK_IsHalted()  returns FALSE (0001ms, 0773ms total)
T1280 001:348 JLINK_IsHalted()  returns FALSE (0001ms, 0773ms total)
T1280 001:350 JLINK_IsHalted()  returns FALSE (0001ms, 0773ms total)
T1280 001:352 JLINK_IsHalted()  returns FALSE (0001ms, 0773ms total)
T1280 001:355 JLINK_IsHalted()  returns FALSE (0000ms, 0772ms total)
T1280 001:364 JLINK_IsHalted() -- CPU_ReadMem(2 bytes @ 0x20000000)  returns TRUE (0005ms, 0777ms total)
T1280 001:369 JLINK_ReadReg(R15 (PC))  returns 0x20000000 (0000ms, 0772ms total)
T1280 001:369 JLINK_ClrBPEx(BPHandle = 0x00000009)  returns 0x00 (0000ms, 0772ms total)
T1280 001:369 JLINK_ReadReg(R0)  returns 0x00000000 (0000ms, 0772ms total)
T1280 001:369 JLINK_WriteMem(0x20000164, 0x0400 Bytes, ...) - Data: 01 20 00 E0 00 20 70 47 01 46 88 68 80 B2 70 47 ... -- CPU_WriteMem(1024 bytes @ 0x20000164)  returns 0x400 (0013ms, 0785ms total)
T1280 001:382 JLINK_WriteReg(R0, 0x08001400)  returns 0x00 (0000ms, 0785ms total)
T1280 001:382 JLINK_WriteReg(R1, 0x00000400)  returns 0x00 (0000ms, 0785ms total)
T1280 001:382 JLINK_WriteReg(R2, 0x20000164)  returns 0x00 (0000ms, 0785ms total)
T1280 001:382 JLINK_WriteReg(R3, 0x00000000)  returns 0x00 (0000ms, 0785ms total)
T1280 001:382 JLINK_WriteReg(R4, 0x00000000)  returns 0x00 (0000ms, 0785ms total)
T1280 001:382 JLINK_WriteReg(R5, 0x00000000)  returns 0x00 (0000ms, 0785ms total)
T1280 001:382 JLINK_WriteReg(R6, 0x00000000)  returns 0x00 (0000ms, 0785ms total)
T1280 001:382 JLINK_WriteReg(R7, 0x00000000)  returns 0x00 (0000ms, 0785ms total)
T1280 001:382 JLINK_WriteReg(R8, 0x00000000)  returns 0x00 (0000ms, 0785ms total)
T1280 001:382 JLINK_WriteReg(R9, 0x20000160)  returns 0x00 (0001ms, 0786ms total)
T1280 001:383 JLINK_WriteReg(R10, 0x00000000)  returns 0x00 (0000ms, 0786ms total)
T1280 001:383 JLINK_WriteReg(R11, 0x00000000)  returns 0x00 (0000ms, 0786ms total)
T1280 001:383 JLINK_WriteReg(R12, 0x00000000)  returns 0x00 (0000ms, 0786ms total)
T1280 001:383 JLINK_WriteReg(R13 (SP), 0x20000800)  returns 0x00 (0000ms, 0786ms total)
T1280 001:383 JLINK_WriteReg(R14, 0x20000001)  returns 0x00 (0000ms, 0786ms total)
T1280 001:383 JLINK_WriteReg(R15 (PC), 0x200000F4)  returns 0x00 (0000ms, 0786ms total)
T1280 001:383 JLINK_WriteReg(XPSR, 0x01000000)  returns 0x00 (0000ms, 0786ms total)
T1280 001:383 JLINK_WriteReg(MSP, 0x20000800)  returns 0x00 (0000ms, 0786ms total)
T1280 001:383 JLINK_WriteReg(PSP, 0x20000800)  returns 0x00 (0000ms, 0786ms total)
T1280 001:383 JLINK_WriteReg(CFBP, 0x00000000)  returns 0x00 (0000ms, 0786ms total)
T1280 001:383 JLINK_SetBPEx(Addr = 0x20000000, Type = 0xFFFFFFF2)  returns 0x0000000A (0000ms, 0786ms total)
T1280 001:383 JLINK_Go() (0002ms, 0788ms total)
T1280 001:385 JLINK_IsHalted()  returns FALSE (0001ms, 0789ms total)
T1280 001:397 JLINK_IsHalted()  returns FALSE (0000ms, 0788ms total)
T1280 001:399 JLINK_IsHalted()  returns FALSE (0000ms, 0788ms total)
T1280 001:403 JLINK_IsHalted()  returns FALSE (0001ms, 0789ms total)
T1280 001:405 JLINK_IsHalted()  returns FALSE (0001ms, 0789ms total)
T1280 001:408 JLINK_IsHalted()  returns FALSE (0000ms, 0788ms total)
T1280 001:410 JLINK_IsHalted()  returns FALSE (0000ms, 0788ms total)
T1280 001:412 JLINK_IsHalted()  returns FALSE (0000ms, 0788ms total)
T1280 001:414 JLINK_IsHalted()  returns FALSE (0000ms, 0788ms total)
T1280 001:416 JLINK_IsHalted() -- CPU_ReadMem(2 bytes @ 0x20000000)  returns TRUE (0004ms, 0792ms total)
T1280 001:420 JLINK_ReadReg(R15 (PC))  returns 0x20000000 (0000ms, 0788ms total)
T1280 001:420 JLINK_ClrBPEx(BPHandle = 0x0000000A)  returns 0x00 (0000ms, 0788ms total)
T1280 001:420 JLINK_ReadReg(R0)  returns 0x00000000 (0000ms, 0788ms total)
T1280 001:421 JLINK_WriteMem(0x20000164, 0x0400 Bytes, ...) - Data: 82 43 2A 4B 5A 61 70 47 29 B1 28 4A 92 69 02 43 ... -- CPU_WriteMem(1024 bytes @ 0x20000164)  returns 0x400 (0013ms, 0801ms total)
T1280 001:434 JLINK_WriteReg(R0, 0x08001800)  returns 0x00 (0000ms, 0801ms total)
T1280 001:434 JLINK_WriteReg(R1, 0x00000400)  returns 0x00 (0000ms, 0801ms total)
T1280 001:434 JLINK_WriteReg(R2, 0x20000164)  returns 0x00 (0000ms, 0801ms total)
T1280 001:434 JLINK_WriteReg(R3, 0x00000000)  returns 0x00 (0000ms, 0801ms total)
T1280 001:434 JLINK_WriteReg(R4, 0x00000000)  returns 0x00 (0000ms, 0801ms total)
T1280 001:434 JLINK_WriteReg(R5, 0x00000000)  returns 0x00 (0000ms, 0801ms total)
T1280 001:434 JLINK_WriteReg(R6, 0x00000000)  returns 0x00 (0000ms, 0801ms total)
T1280 001:434 JLINK_WriteReg(R7, 0x00000000)  returns 0x00 (0000ms, 0801ms total)
T1280 001:434 JLINK_WriteReg(R8, 0x00000000)  returns 0x00 (0000ms, 0801ms total)
T1280 001:434 JLINK_WriteReg(R9, 0x20000160)  returns 0x00 (0000ms, 0801ms total)
T1280 001:434 JLINK_WriteReg(R10, 0x00000000)  returns 0x00 (0000ms, 0801ms total)
T1280 001:434 JLINK_WriteReg(R11, 0x00000000)  returns 0x00 (0000ms, 0801ms total)
T1280 001:434 JLINK_WriteReg(R12, 0x00000000)  returns 0x00 (0000ms, 0801ms total)
T1280 001:434 JLINK_WriteReg(R13 (SP), 0x20000800)  returns 0x00 (0000ms, 0801ms total)
T1280 001:434 JLINK_WriteReg(R14, 0x20000001)  returns 0x00 (0000ms, 0801ms total)
T1280 001:434 JLINK_WriteReg(R15 (PC), 0x200000F4)  returns 0x00 (0000ms, 0801ms total)
T1280 001:434 JLINK_WriteReg(XPSR, 0x01000000)  returns 0x00 (0000ms, 0801ms total)
T1280 001:434 JLINK_WriteReg(MSP, 0x20000800)  returns 0x00 (0000ms, 0801ms total)
T1280 001:434 JLINK_WriteReg(PSP, 0x20000800)  returns 0x00 (0000ms, 0801ms total)
T1280 001:434 JLINK_WriteReg(CFBP, 0x00000000)  returns 0x00 (0000ms, 0801ms total)
T1280 001:434 JLINK_SetBPEx(Addr = 0x20000000, Type = 0xFFFFFFF2)  returns 0x0000000B (0000ms, 0801ms total)
T1280 001:435 JLINK_Go() (0002ms, 0803ms total)
T1280 001:437 JLINK_IsHalted()  returns FALSE (0001ms, 0804ms total)
T1280 001:443 JLINK_IsHalted()  returns FALSE (0001ms, 0804ms total)
T1280 001:446 JLINK_IsHalted()  returns FALSE (0000ms, 0803ms total)
T1280 001:448 JLINK_IsHalted()  returns FALSE (0001ms, 0804ms total)
T1280 001:450 JLINK_IsHalted()  returns FALSE (0001ms, 0804ms total)
T1280 001:453 JLINK_IsHalted()  returns FALSE (0000ms, 0803ms total)
T1280 001:455 JLINK_IsHalted()  returns FALSE (0000ms, 0803ms total)
T1280 001:457 JLINK_IsHalted()  returns FALSE (0000ms, 0803ms total)
T1280 001:459 JLINK_IsHalted()  returns FALSE (0000ms, 0803ms total)
T1280 001:461 JLINK_IsHalted()  returns FALSE (0000ms, 0803ms total)
T1280 001:463 JLINK_IsHalted()  returns FALSE (0001ms, 0804ms total)
T1280 001:473 JLINK_IsHalted() -- CPU_ReadMem(2 bytes @ 0x20000000)  returns TRUE (0005ms, 0808ms total)
T1280 001:478 JLINK_ReadReg(R15 (PC))  returns 0x20000000 (0000ms, 0803ms total)
T1280 001:478 JLINK_ClrBPEx(BPHandle = 0x0000000B)  returns 0x00 (0000ms, 0803ms total)
T1280 001:478 JLINK_ReadReg(R0)  returns 0x00000000 (0000ms, 0803ms total)
T1280 001:480 JLINK_WriteMem(0x20000164, 0x0400 Bytes, ...) - Data: 31 40 01 E0 96 8A 31 40 1C 12 01 26 06 FA 04 F4 ... -- CPU_WriteMem(1024 bytes @ 0x20000164)  returns 0x400 (0013ms, 0816ms total)
T1280 001:493 JLINK_WriteReg(R0, 0x08001C00)  returns 0x00 (0000ms, 0816ms total)
T1280 001:493 JLINK_WriteReg(R1, 0x00000400)  returns 0x00 (0000ms, 0816ms total)
T1280 001:493 JLINK_WriteReg(R2, 0x20000164)  returns 0x00 (0000ms, 0816ms total)
T1280 001:493 JLINK_WriteReg(R3, 0x00000000)  returns 0x00 (0000ms, 0816ms total)
T1280 001:493 JLINK_WriteReg(R4, 0x00000000)  returns 0x00 (0000ms, 0816ms total)
T1280 001:493 JLINK_WriteReg(R5, 0x00000000)  returns 0x00 (0000ms, 0816ms total)
T1280 001:493 JLINK_WriteReg(R6, 0x00000000)  returns 0x00 (0000ms, 0816ms total)
T1280 001:493 JLINK_WriteReg(R7, 0x00000000)  returns 0x00 (0000ms, 0816ms total)
T1280 001:493 JLINK_WriteReg(R8, 0x00000000)  returns 0x00 (0000ms, 0816ms total)
T1280 001:493 JLINK_WriteReg(R9, 0x20000160)  returns 0x00 (0000ms, 0816ms total)
T1280 001:493 JLINK_WriteReg(R10, 0x00000000)  returns 0x00 (0000ms, 0816ms total)
T1280 001:493 JLINK_WriteReg(R11, 0x00000000)  returns 0x00 (0000ms, 0816ms total)
T1280 001:493 JLINK_WriteReg(R12, 0x00000000)  returns 0x00 (0000ms, 0816ms total)
T1280 001:493 JLINK_WriteReg(R13 (SP), 0x20000800)  returns 0x00 (0000ms, 0816ms total)
T1280 001:493 JLINK_WriteReg(R14, 0x20000001)  returns 0x00 (0000ms, 0816ms total)
T1280 001:493 JLINK_WriteReg(R15 (PC), 0x200000F4)  returns 0x00 (0000ms, 0816ms total)
T1280 001:493 JLINK_WriteReg(XPSR, 0x01000000)  returns 0x00 (0000ms, 0816ms total)
T1280 001:493 JLINK_WriteReg(MSP, 0x20000800)  returns 0x00 (0000ms, 0816ms total)
T1280 001:493 JLINK_WriteReg(PSP, 0x20000800)  returns 0x00 (0000ms, 0816ms total)
T1280 001:493 JLINK_WriteReg(CFBP, 0x00000000)  returns 0x00 (0000ms, 0816ms total)
T1280 001:493 JLINK_SetBPEx(Addr = 0x20000000, Type = 0xFFFFFFF2)  returns 0x0000000C (0000ms, 0816ms total)
T1280 001:493 JLINK_Go() (0003ms, 0819ms total)
T1280 001:496 JLINK_IsHalted()  returns FALSE (0000ms, 0819ms total)
T1280 001:509 JLINK_IsHalted()  returns FALSE (0001ms, 0820ms total)
T1280 001:514 JLINK_IsHalted()  returns FALSE (0000ms, 0819ms total)
T1280 001:516 JLINK_IsHalted()  returns FALSE (0000ms, 0819ms total)
T1280 001:518 JLINK_IsHalted()  returns FALSE (0000ms, 0819ms total)
T1280 001:520 JLINK_IsHalted()  returns FALSE (0000ms, 0819ms total)
T1280 001:522 JLINK_IsHalted()  returns FALSE (0000ms, 0819ms total)
T1280 001:524 JLINK_IsHalted()  returns FALSE (0001ms, 0820ms total)
T1280 001:527 JLINK_IsHalted() -- CPU_ReadMem(2 bytes @ 0x20000000)  returns TRUE (0004ms, 0823ms total)
T1280 001:531 JLINK_ReadReg(R15 (PC))  returns 0x20000000 (0000ms, 0819ms total)
T1280 001:531 JLINK_ClrBPEx(BPHandle = 0x0000000C)  returns 0x00 (0000ms, 0819ms total)
T1280 001:531 JLINK_ReadReg(R0)  returns 0x00000000 (0000ms, 0819ms total)
T1280 001:532 JLINK_WriteMem(0x20000164, 0x0400 Bytes, ...) - Data: 11 60 07 E0 0A 49 44 39 09 68 21 F4 00 01 08 4A ... -- CPU_WriteMem(1024 bytes @ 0x20000164)  returns 0x400 (0012ms, 0831ms total)
T1280 001:544 JLINK_WriteReg(R0, 0x08002000)  returns 0x00 (0000ms, 0831ms total)
T1280 001:544 JLINK_WriteReg(R1, 0x00000400)  returns 0x00 (0000ms, 0831ms total)
T1280 001:544 JLINK_WriteReg(R2, 0x20000164)  returns 0x00 (0000ms, 0831ms total)
T1280 001:544 JLINK_WriteReg(R3, 0x00000000)  returns 0x00 (0000ms, 0831ms total)
T1280 001:544 JLINK_WriteReg(R4, 0x00000000)  returns 0x00 (0000ms, 0831ms total)
T1280 001:544 JLINK_WriteReg(R5, 0x00000000)  returns 0x00 (0000ms, 0831ms total)
T1280 001:544 JLINK_WriteReg(R6, 0x00000000)  returns 0x00 (0000ms, 0831ms total)
T1280 001:544 JLINK_WriteReg(R7, 0x00000000)  returns 0x00 (0000ms, 0831ms total)
T1280 001:544 JLINK_WriteReg(R8, 0x00000000)  returns 0x00 (0000ms, 0831ms total)
T1280 001:544 JLINK_WriteReg(R9, 0x20000160)  returns 0x00 (0000ms, 0831ms total)
T1280 001:544 JLINK_WriteReg(R10, 0x00000000)  returns 0x00 (0000ms, 0831ms total)
T1280 001:544 JLINK_WriteReg(R11, 0x00000000)  returns 0x00 (0000ms, 0831ms total)
T1280 001:544 JLINK_WriteReg(R12, 0x00000000)  returns 0x00 (0000ms, 0831ms total)
T1280 001:544 JLINK_WriteReg(R13 (SP), 0x20000800)  returns 0x00 (0000ms, 0831ms total)
T1280 001:544 JLINK_WriteReg(R14, 0x20000001)  returns 0x00 (0001ms, 0832ms total)
T1280 001:545 JLINK_WriteReg(R15 (PC), 0x200000F4)  returns 0x00 (0000ms, 0832ms total)
T1280 001:545 JLINK_WriteReg(XPSR, 0x01000000)  returns 0x00 (0000ms, 0832ms total)
T1280 001:545 JLINK_WriteReg(MSP, 0x20000800)  returns 0x00 (0000ms, 0832ms total)
T1280 001:545 JLINK_WriteReg(PSP, 0x20000800)  returns 0x00 (0000ms, 0832ms total)
T1280 001:545 JLINK_WriteReg(CFBP, 0x00000000)  returns 0x00 (0000ms, 0832ms total)
T1280 001:545 JLINK_SetBPEx(Addr = 0x20000000, Type = 0xFFFFFFF2)  returns 0x0000000D (0000ms, 0832ms total)
T1280 001:545 JLINK_Go() (0002ms, 0834ms total)
T1280 001:547 JLINK_IsHalted()  returns FALSE (0001ms, 0835ms total)
T1280 001:553 JLINK_IsHalted()  returns FALSE (0001ms, 0835ms total)
T1280 001:556 JLINK_IsHalted()  returns FALSE (0000ms, 0834ms total)
T1280 001:558 JLINK_IsHalted()  returns FALSE (0000ms, 0834ms total)
T1280 001:560 JLINK_IsHalted()  returns FALSE (0001ms, 0835ms total)
T1280 001:562 JLINK_IsHalted()  returns FALSE (0001ms, 0835ms total)
T1280 001:565 JLINK_IsHalted()  returns FALSE (0001ms, 0835ms total)
T1280 001:567 JLINK_IsHalted()  returns FALSE (0001ms, 0835ms total)
T1280 001:570 JLINK_IsHalted()  returns FALSE (0001ms, 0835ms total)
T1280 001:572 JLINK_IsHalted()  returns FALSE (0001ms, 0835ms total)
T1280 001:580 JLINK_IsHalted() -- CPU_ReadMem(2 bytes @ 0x20000000)  returns TRUE (0004ms, 0838ms total)
T1280 001:584 JLINK_ReadReg(R15 (PC))  returns 0x20000000 (0000ms, 0834ms total)
T1280 001:584 JLINK_ClrBPEx(BPHandle = 0x0000000D)  returns 0x00 (0000ms, 0834ms total)
T1280 001:584 JLINK_ReadReg(R0)  returns 0x00000000 (0000ms, 0834ms total)
T1280 001:585 JLINK_WriteMem(0x20000164, 0x0400 Bytes, ...) - Data: 4F F6 FB 75 2A 40 8D 88 2A 43 47 F6 FF 65 2B 40 ... -- CPU_WriteMem(1024 bytes @ 0x20000164)  returns 0x400 (0013ms, 0847ms total)
T1280 001:598 JLINK_WriteReg(R0, 0x08002400)  returns 0x00 (0000ms, 0847ms total)
T1280 001:598 JLINK_WriteReg(R1, 0x00000400)  returns 0x00 (0000ms, 0847ms total)
T1280 001:598 JLINK_WriteReg(R2, 0x20000164)  returns 0x00 (0000ms, 0847ms total)
T1280 001:598 JLINK_WriteReg(R3, 0x00000000)  returns 0x00 (0000ms, 0847ms total)
T1280 001:598 JLINK_WriteReg(R4, 0x00000000)  returns 0x00 (0000ms, 0847ms total)
T1280 001:598 JLINK_WriteReg(R5, 0x00000000)  returns 0x00 (0000ms, 0847ms total)
T1280 001:598 JLINK_WriteReg(R6, 0x00000000)  returns 0x00 (0000ms, 0847ms total)
T1280 001:598 JLINK_WriteReg(R7, 0x00000000)  returns 0x00 (0000ms, 0847ms total)
T1280 001:598 JLINK_WriteReg(R8, 0x00000000)  returns 0x00 (0000ms, 0847ms total)
T1280 001:598 JLINK_WriteReg(R9, 0x20000160)  returns 0x00 (0000ms, 0847ms total)
T1280 001:598 JLINK_WriteReg(R10, 0x00000000)  returns 0x00 (0000ms, 0847ms total)
T1280 001:598 JLINK_WriteReg(R11, 0x00000000)  returns 0x00 (0000ms, 0847ms total)
T1280 001:598 JLINK_WriteReg(R12, 0x00000000)  returns 0x00 (0000ms, 0847ms total)
T1280 001:598 JLINK_WriteReg(R13 (SP), 0x20000800)  returns 0x00 (0000ms, 0847ms total)
T1280 001:598 JLINK_WriteReg(R14, 0x20000001)  returns 0x00 (0000ms, 0847ms total)
T1280 001:598 JLINK_WriteReg(R15 (PC), 0x200000F4)  returns 0x00 (0000ms, 0847ms total)
T1280 001:598 JLINK_WriteReg(XPSR, 0x01000000)  returns 0x00 (0000ms, 0847ms total)
T1280 001:598 JLINK_WriteReg(MSP, 0x20000800)  returns 0x00 (0000ms, 0847ms total)
T1280 001:598 JLINK_WriteReg(PSP, 0x20000800)  returns 0x00 (0000ms, 0847ms total)
T1280 001:598 JLINK_WriteReg(CFBP, 0x00000000)  returns 0x00 (0000ms, 0847ms total)
T1280 001:598 JLINK_SetBPEx(Addr = 0x20000000, Type = 0xFFFFFFF2)  returns 0x0000000E (0000ms, 0847ms total)
T1280 001:598 JLINK_Go() (0002ms, 0849ms total)
T1280 001:600 JLINK_IsHalted()  returns FALSE (0001ms, 0850ms total)
T1280 001:616 JLINK_IsHalted()  returns FALSE (0001ms, 0850ms total)
T1280 001:619 JLINK_IsHalted()  returns FALSE (0001ms, 0850ms total)
T1280 001:623 JLINK_IsHalted()  returns FALSE (0001ms, 0850ms total)
T1280 001:626 JLINK_IsHalted()  returns FALSE (0001ms, 0850ms total)
T1280 001:628 JLINK_IsHalted()  returns FALSE (0001ms, 0850ms total)
T1280 001:630 JLINK_IsHalted()  returns FALSE (0001ms, 0850ms total)
T1280 001:632 JLINK_IsHalted() -- CPU_ReadMem(2 bytes @ 0x20000000)  returns TRUE (0005ms, 0854ms total)
T1280 001:637 JLINK_ReadReg(R15 (PC))  returns 0x20000000 (0000ms, 0849ms total)
T1280 001:637 JLINK_ClrBPEx(BPHandle = 0x0000000E)  returns 0x00 (0000ms, 0849ms total)
T1280 001:637 JLINK_ReadReg(R0)  returns 0x00000000 (0000ms, 0849ms total)
T1280 001:638 JLINK_WriteMem(0x20000164, 0x0400 Bytes, ...) - Data: 61 88 28 46 FF F7 4E FF E1 88 28 46 FF F7 35 FF ... -- CPU_WriteMem(1024 bytes @ 0x20000164)  returns 0x400 (0013ms, 0862ms total)
T1280 001:651 JLINK_WriteReg(R0, 0x08002800)  returns 0x00 (0000ms, 0862ms total)
T1280 001:651 JLINK_WriteReg(R1, 0x00000400)  returns 0x00 (0000ms, 0862ms total)
T1280 001:651 JLINK_WriteReg(R2, 0x20000164)  returns 0x00 (0000ms, 0862ms total)
T1280 001:651 JLINK_WriteReg(R3, 0x00000000)  returns 0x00 (0000ms, 0862ms total)
T1280 001:651 JLINK_WriteReg(R4, 0x00000000)  returns 0x00 (0000ms, 0862ms total)
T1280 001:651 JLINK_WriteReg(R5, 0x00000000)  returns 0x00 (0000ms, 0862ms total)
T1280 001:651 JLINK_WriteReg(R6, 0x00000000)  returns 0x00 (0000ms, 0862ms total)
T1280 001:651 JLINK_WriteReg(R7, 0x00000000)  returns 0x00 (0000ms, 0862ms total)
T1280 001:651 JLINK_WriteReg(R8, 0x00000000)  returns 0x00 (0000ms, 0862ms total)
T1280 001:651 JLINK_WriteReg(R9, 0x20000160)  returns 0x00 (0000ms, 0862ms total)
T1280 001:651 JLINK_WriteReg(R10, 0x00000000)  returns 0x00 (0000ms, 0862ms total)
T1280 001:651 JLINK_WriteReg(R11, 0x00000000)  returns 0x00 (0000ms, 0862ms total)
T1280 001:651 JLINK_WriteReg(R12, 0x00000000)  returns 0x00 (0000ms, 0862ms total)
T1280 001:651 JLINK_WriteReg(R13 (SP), 0x20000800)  returns 0x00 (0000ms, 0862ms total)
T1280 001:651 JLINK_WriteReg(R14, 0x20000001)  returns 0x00 (0000ms, 0862ms total)
T1280 001:651 JLINK_WriteReg(R15 (PC), 0x200000F4)  returns 0x00 (0000ms, 0862ms total)
T1280 001:651 JLINK_WriteReg(XPSR, 0x01000000)  returns 0x00 (0000ms, 0862ms total)
T1280 001:651 JLINK_WriteReg(MSP, 0x20000800)  returns 0x00 (0000ms, 0862ms total)
T1280 001:651 JLINK_WriteReg(PSP, 0x20000800)  returns 0x00 (0000ms, 0862ms total)
T1280 001:651 JLINK_WriteReg(CFBP, 0x00000000)  returns 0x00 (0000ms, 0862ms total)
T1280 001:651 JLINK_SetBPEx(Addr = 0x20000000, Type = 0xFFFFFFF2)  returns 0x0000000F (0000ms, 0862ms total)
T1280 001:651 JLINK_Go() (0003ms, 0865ms total)
T1280 001:654 JLINK_IsHalted()  returns FALSE (0000ms, 0865ms total)
T1280 001:657 JLINK_IsHalted()  returns FALSE (0001ms, 0866ms total)
T1280 001:659 JLINK_IsHalted()  returns FALSE (0001ms, 0866ms total)
T1280 001:661 JLINK_IsHalted()  returns FALSE (0001ms, 0866ms total)
T1280 001:664 JLINK_IsHalted()  returns FALSE (0001ms, 0866ms total)
T1280 001:666 JLINK_IsHalted()  returns FALSE (0001ms, 0866ms total)
T1280 001:678 JLINK_IsHalted()  returns FALSE (0001ms, 0866ms total)
T1280 001:680 JLINK_IsHalted()  returns FALSE (0001ms, 0866ms total)
T1280 001:682 JLINK_IsHalted()  returns FALSE (0001ms, 0866ms total)
T1280 001:690 JLINK_IsHalted() -- CPU_ReadMem(2 bytes @ 0x20000000)  returns TRUE (0005ms, 0870ms total)
T1280 001:695 JLINK_ReadReg(R15 (PC))  returns 0x20000000 (0000ms, 0865ms total)
T1280 001:695 JLINK_ClrBPEx(BPHandle = 0x0000000F)  returns 0x00 (0000ms, 0865ms total)
